
T24B8 000:560 SEGGER J-Link V4.84c Log File (0002ms, 0325ms total)
T24B8 000:560 DLL Compiled: Apr 16 2014 18:53:07 (0002ms, 0325ms total)
T24B8 000:560 Logging started @ 2014-06-01 04:22 (0002ms, 0325ms total)
T24B8 000:562 JLINK_SetWarnOutHandler(...) (0000ms, 0325ms total)
T24B8 000:562 JLINK_OpenEx(...)
Firmware: J-Link Lite-Cortex-M V8 compiled Aug 29 2012 15:24:23
Hardware: V8.00
S/N: 518005688
Feature(s): GDB  returns O.K. (0310ms, 0635ms total)
T24B8 000:872 JLINK_SetErrorOutHandler(...) (0000ms, 0635ms total)
T24B8 000:872 JLINK_ExecCommand("ProjectFile = "C:\Keil\ARM\Device\Nordic\nrf51822\Board\pca10001\ble\ble_app_lbe\arm\JLinkSettings.ini"", ...)  returns 0x00 (0001ms, 0636ms total)
T24B8 000:874 JLINK_ExecCommand("Device = nRF51822_xxAA", ...)Device "NRF51822_XXAA" selected (257 KB flash, 16 KB RAM).  returns 0x00 (0004ms, 0640ms total)
T24B8 000:878 JLINK_ExecCommand("DisableConnectionTimeout", ...)  returns 0x01 (0000ms, 0640ms total)
T24B8 000:878 JLINK_GetHardwareVersion()  returns 0x13880 (0000ms, 0640ms total)
T24B8 000:878 JLINK_GetDLLVersion()  returns 48403 (0000ms, 0640ms total)
T24B8 000:878 JLINK_GetFirmwareString(...) (0000ms, 0640ms total)
T24B8 000:883 JLINK_GetDLLVersion()  returns 48403 (0000ms, 0640ms total)
T24B8 000:883 JLINK_GetCompileDateTime() (0001ms, 0641ms total)
T24B8 000:884 JLINK_GetFirmwareString(...) (0000ms, 0641ms total)
T24B8 000:884 JLINK_GetHardwareVersion()  returns 0x13880 (0000ms, 0641ms total)
T24B8 000:887 JLINK_TIF_Select(JLINKARM_TIF_SWD)  returns 0x00 (0013ms, 0654ms total)
T24B8 000:900 JLINK_SetSpeed(2000) (0002ms, 0656ms total)
T24B8 000:902 JLINK_GetId() >0x108 TIF>Found SWD-DP with ID 0x0BB11477 >0x35 TIF> >0x0D TIF> >0x28 TIF> >0x0D TIF> >0x28 TIF> >0x35 TIF> >0x0D TIF> >0x28 TIF> >0x35 TIF> >0x35 TIF> >0x35 TIF> >0x0D TIF> >0x28 TIF> >0x0D TIF> >0x28 TIF> >0x0D TIF> >0x28 TIF> >0x35 TIF> >0x35 TIF> >0x35 TIF> >0x0D TIF> >0x28 TIF> >0x0D TIF> >0x28 TIF> >0x35 TIF> >0x0D TIF> >0x28 TIF> >0x0D TIF> >0x28 TIF> >0x0D TIF> >0x28 TIF> >0x35 TIF> >0x35 TIF> >0x0D TIF> >0x28 TIF> >0x35 TIF> >0x35 TIF>
Found Cortex-M0 r0p0, Little endian. -- CPU_WriteMem(4 bytes @ 0xE0002000) -- CPU_ReadMem(4 bytes @ 0xE000EDF0) -- CPU_ReadMem(4 bytes @ 0xE0002000)FPUnit: 4 code (BP) slots and 0 literal slots -- CPU_ReadMem(4 bytes @ 0xE000EDFC) -- CPU_ReadMem(4 bytes @ 0xE0001000) -- CPU_WriteMem(4 bytes @ 0xE0001000) -- CPU_ReadMem(4 bytes @ 0xE00FF018) >0x35 TIF>  returns 0x0BB11477 (0162ms, 0818ms total)
T24B8 001:064 JLINK_GetDeviceFamily()  returns 6 (0000ms, 0818ms total)
T24B8 001:065 JLINK_ReadMem (0xE00FFFF0, 0x0010 Bytes, ...) -- CPU is running -- CPU_ReadMem(16 bytes @ 0xE00FFFF0) -- Data:  0D 00 00 00 10 00 00 00 05 00 00 00 B1 00 00 00  returns 0x00 (0007ms, 0825ms total)
T24B8 001:072 JLINK_ReadMem (0xE00FFFD0, 0x0020 Bytes, ...) -- CPU is running -- CPU_ReadMem(32 bytes @ 0xE00FFFD0) -- Data:  04 00 00 00 00 00 00 00 00 00 00 00 00 00 00 00 ...  returns 0x00 (0003ms, 0828ms total)
T24B8 001:075 JLINK_ReadMem (0xE00FF000, 0x0018 Bytes, ...) -- CPU is running -- CPU_ReadMem(24 bytes @ 0xE00FF000) -- Data:  03 F0 F0 FF 03 20 F0 FF 03 30 F0 FF 00 00 00 00 ...  returns 0x00 (0003ms, 0831ms total)
T24B8 001:078 JLINK_ReadMemU32(0xE000ED00, 0x0001 Items, ...) -- CPU is running -- CPU_ReadMem(4 bytes @ 0xE000ED00) -- Data:  00 C2 0C 41  returns 0x01 (0003ms, 0834ms total)
T24B8 001:081 JLINK_SetResetType(JLINKARM_RESET_TYPE_NORMAL)  returns JLINKARM_RESET_TYPE_NORMAL (0000ms, 0834ms total)
T24B8 001:081 JLINK_Reset() -- CPU is running -- CPU_WriteMem(4 bytes @ 0xE000EDF0) -- CPU is running -- CPU_WriteMem(4 bytes @ 0xE000EDFC) >0x35 TIF> -- CPU is running -- CPU_WriteMem(4 bytes @ 0xE000ED0C) -- CPU is running -- CPU_ReadMem(4 bytes @ 0xE000EDF0) -- CPU is running -- CPU_ReadMem(4 bytes @ 0xE000EDF0) -- CPU is running -- CPU_WriteMem(4 bytes @ 0xE000EDF0) -- CPU is running -- CPU_WriteMem(4 bytes @ 0xE000EDFC) -- CPU is running -- CPU_ReadMem(4 bytes @ 0xE000EDF0)
 -- CPU_WriteMem(4 bytes @ 0xE0002000) -- CPU_ReadMem(4 bytes @ 0xE000EDFC) -- CPU_ReadMem(4 bytes @ 0xE0001000) -- CPU_WriteMem(4 bytes @ 0xE0001000) (0059ms, 0893ms total)
T24B8 001:140 JLINK_ReadReg(R15 (PC))  returns 0x00012B98 (0000ms, 0893ms total)
T24B8 001:140 JLINK_ReadReg(XPSR)  returns 0xC1000000 (0000ms, 0893ms total)
T24B8 001:140 JLINK_Halt()  returns 0x00 (0000ms, 0893ms total)
T24B8 001:140 JLINK_IsHalted()  returns TRUE (0000ms, 0893ms total)
T24B8 001:140 JLINK_ReadMemU32(0xE000EDF0, 0x0001 Items, ...) -- CPU_ReadMem(4 bytes @ 0xE000EDF0) -- Data:  03 00 03 00  returns 0x01 (0003ms, 0896ms total)
T24B8 001:143 JLINK_WriteU32(0xE000EDF0, 0xA05F0003) -- CPU_WriteMem(4 bytes @ 0xE000EDF0)  returns 0x00 (0004ms, 0900ms total)
T24B8 001:147 JLINK_WriteU32(0xE000EDFC, 0x01000000) -- CPU_WriteMem(4 bytes @ 0xE000EDFC)  returns 0x00 (0003ms, 0903ms total)
T24B8 001:151 JLINK_GetHWStatus(...)  returns 0x00 (0002ms, 0905ms total)
T24B8 001:153 JLINK_GetNumBPUnits(Type = 0xFFFFFF00)  returns 0x04 (0000ms, 0905ms total)
T24B8 001:153 JLINK_GetNumBPUnits(Type = 0xF0)  returns 0x2000 (0001ms, 0906ms total)
T24B8 001:154 JLINK_GetNumWPUnits()  returns 0x02 (0000ms, 0906ms total)
T24B8 001:154 JLINK_GetSpeed()  returns 0x7D0 (0000ms, 0906ms total)
T24B8 001:154 JLINK_ReadMemU32(0xE000E004, 0x0001 Items, ...) -- CPU_ReadMem(4 bytes @ 0xE000E004) -- Data:  00 00 00 00  returns 0x01 (0004ms, 0910ms total)
T24B8 001:158 JLINK_ReadReg(R15 (PC))  returns 0x00012B98 (0000ms, 0910ms total)
T24B8 001:158 JLINK_ReadReg(XPSR)  returns 0xC1000000 (0000ms, 0910ms total)
T24B8 001:234 JLINK_SetResetType(JLINKARM_RESET_TYPE_NORMAL)  returns JLINKARM_RESET_TYPE_NORMAL (0000ms, 0910ms total)
T24B8 001:234 JLINK_Reset() -- CPU_WriteMem(4 bytes @ 0xE000EDF0) -- CPU_WriteMem(4 bytes @ 0xE000EDFC) >0x35 TIF> -- CPU_WriteMem(4 bytes @ 0xE000ED0C) -- CPU_ReadMem(4 bytes @ 0xE000EDF0) -- CPU_ReadMem(4 bytes @ 0xE000EDF0) -- CPU_WriteMem(4 bytes @ 0xE000EDF0) -- CPU_WriteMem(4 bytes @ 0xE000EDFC) -- CPU is running -- CPU_ReadMem(4 bytes @ 0xE000EDF0) -- CPU_WriteMem(4 bytes @ 0xE0002000) -- CPU_ReadMem(4 bytes @ 0xE000EDFC) -- CPU_ReadMem(4 bytes @ 0xE0001000) -- CPU_WriteMem(4 bytes @ 0xE0001000)
 (0057ms, 0967ms total)
T24B8 001:292 JLINK_ReadReg(R15 (PC))  returns 0x00012B98 (0000ms, 0968ms total)
T24B8 001:292 JLINK_ReadReg(XPSR)  returns 0xC1000000 (0000ms, 0968ms total)
T24B8 001:292 JLINK_ReadMem (0x00012B98, 0x003C Bytes, ...) -- CPU_ReadMem(128 bytes @ 0x00012B80) -- Updating C cache (128 bytes @ 0x00012B80) -- Read from C cache (60 bytes @ 0x00012B98) -- Data:  15 4B 1B 68 0F 49 99 42 02 D0 18 68 88 42 F5 D0 ...  returns 0x00 (0004ms, 0972ms total)
T24B8 002:195 JLINK_ReadMem (0x00014C70, 0x003C Bytes, ...) -- CPU_ReadMem(128 bytes @ 0x00014C40) -- Updating C cache (128 bytes @ 0x00014C40) -- Read from C cache (60 bytes @ 0x00014C70) -- Data:  08 B5 FF F7 4A FC FF F7 5C FC FF F7 94 FF FF F7 ...  returns 0x00 (0007ms, 0979ms total)
T2C88 002:400 JLINK_SetBPEx(Addr = 0x00014C70, Type = 0xFFFFFFF2)  returns 0x00000001 (0000ms, 0979ms total)
T2C88 002:400 JLINK_SetBPEx(Addr = 0x00014CAE, Type = 0xFFFFFFF2)  returns 0x00000002 (0000ms, 0979ms total)
T2C88 002:400 JLINK_Go() -- CPU_WriteMem(4 bytes @ 0xE0002000) -- CPU_WriteMem(4 bytes @ 0xE0002008) -- CPU_WriteMem(4 bytes @ 0xE0002000) -- CPU_WriteMem(4 bytes @ 0xE000200C) -- CPU_WriteMem(4 bytes @ 0xE0002010) -- CPU_WriteMem(4 bytes @ 0xE0002014) -- CPU_WriteMem(4 bytes @ 0xE0001004) (0029ms, 1008ms total)
T2C88 002:529 JLINK_IsHalted()  returns TRUE (0008ms, 1016ms total)
T2C88 002:537 JLINK_Halt()  returns 0x00 (0000ms, 1008ms total)
T2C88 002:537 JLINK_IsHalted()  returns TRUE (0000ms, 1008ms total)
T2C88 002:538 JLINK_IsHalted()  returns TRUE (0000ms, 1008ms total)
T2C88 002:538 JLINK_IsHalted()  returns TRUE (0000ms, 1008ms total)
T2C88 002:538 JLINK_ReadReg(R15 (PC))  returns 0x00014C70 (0000ms, 1008ms total)
T2C88 002:538 JLINK_ReadReg(XPSR)  returns 0x01000000 (0000ms, 1008ms total)
T2C88 002:538 JLINK_ClrBPEx(BPHandle = 0x00000001)  returns 0x00 (0000ms, 1008ms total)
T2C88 002:538 JLINK_ClrBPEx(BPHandle = 0x00000002)  returns 0x00 (0000ms, 1008ms total)
T2C88 002:538 JLINK_ReadMemU32(0xE000ED30, 0x0001 Items, ...) -- CPU_ReadMem(4 bytes @ 0xE000ED30) -- Data:  03 00 00 00  returns 0x01 (0003ms, 1011ms total)
T2C88 002:541 JLINK_ReadMemU32(0xE0001028, 0x0001 Items, ...) -- CPU_ReadMem(4 bytes @ 0xE0001028) -- Data:  00 00 00 00  returns 0x01 (0004ms, 1015ms total)
T2C88 002:545 JLINK_ReadMemU32(0xE0001038, 0x0001 Items, ...) -- CPU_ReadMem(4 bytes @ 0xE0001038) -- Data:  00 00 00 00  returns 0x01 (0003ms, 1018ms total)
T2C88 002:548 JLINK_ReadReg(R0)  returns 0x20002888 (0000ms, 1018ms total)
T2C88 002:548 JLINK_ReadReg(R1)  returns 0x20003088 (0000ms, 1018ms total)
T2C88 002:548 JLINK_ReadReg(R2)  returns 0x20003088 (0001ms, 1019ms total)
T2C88 002:549 JLINK_ReadReg(R3)  returns 0x20003088 (0000ms, 1019ms total)
T2C88 002:549 JLINK_ReadReg(R4)  returns 0x0001AC70 (0000ms, 1019ms total)
T2C88 002:549 JLINK_ReadReg(R5)  returns 0x20002828 (0000ms, 1019ms total)
T2C88 002:549 JLINK_ReadReg(R6)  returns 0x00000000 (0000ms, 1019ms total)
T2C88 002:549 JLINK_ReadReg(R7)  returns 0x00000000 (0000ms, 1019ms total)
T2C88 002:549 JLINK_ReadReg(R8)  returns 0xFFFFFFFF (0000ms, 1019ms total)
T2C88 002:549 JLINK_ReadReg(R9)  returns 0xFFFFFFFF (0000ms, 1019ms total)
T2C88 002:549 JLINK_ReadReg(R10)  returns 0x0001AC70 (0000ms, 1019ms total)
T2C88 002:549 JLINK_ReadReg(R11)  returns 0x0001AC70 (0000ms, 1019ms total)
T2C88 002:549 JLINK_ReadReg(R12)  returns 0xFFFFFFFF (0000ms, 1019ms total)
T2C88 002:549 JLINK_ReadReg(R13 (SP))  returns 0x20003888 (0000ms, 1019ms total)
T2C88 002:549 JLINK_ReadReg(R14)  returns 0x00014157 (0000ms, 1019ms total)
T2C88 002:549 JLINK_ReadReg(R15 (PC))  returns 0x00014C70 (0000ms, 1019ms total)
T2C88 002:549 JLINK_ReadReg(XPSR)  returns 0x01000000 (0000ms, 1019ms total)
T2C88 002:549 JLINK_ReadReg(MSP)  returns 0x20003888 (0001ms, 1020ms total)
T2C88 002:550 JLINK_ReadReg(PSP)  returns 0xFFFFFFFC (0000ms, 1020ms total)
T2C88 002:550 JLINK_ReadReg(CFBP)  returns 0x00000000 (0000ms, 1020ms total)
T24B8 002:550 JLINK_ReadMem (0x00000000, 0x0004 Bytes, ...) -- CPU_ReadMem(64 bytes @ 0x00000000) -- Updating C cache (64 bytes @ 0x00000000) -- Read from C cache (4 bytes @ 0x00000000) -- Data:  48 1C 00 20  returns 0x00 (0004ms, 1024ms total)
T24B8 002:554 JLINK_ReadMem (0x20003880, 0x0002 Bytes, ...) -- CPU_ReadMem(64 bytes @ 0x20003880) -- Updating C cache (64 bytes @ 0x20003880) -- Read from C cache (2 bytes @ 0x20003880) -- Data:  70 AC  returns 0x00 (0003ms, 1027ms total)
T2C88 004:114 JLINK_SetBPEx(Addr = 0x00014CAE, Type = 0xFFFFFFF2)  returns 0x00000003 (0002ms, 1029ms total)
T2C88 004:116 JLINK_Go() -- CPU_WriteMem(4 bytes @ 0xE0002000) -- CPU_WriteMem(4 bytes @ 0xE0002008) -- CPU_WriteMem(4 bytes @ 0xE000200C) (0019ms, 1048ms total)
T2C88 004:235 JLINK_IsHalted()  returns TRUE (0008ms, 1056ms total)
T2C88 004:243 JLINK_Halt()  returns 0x00 (0000ms, 1048ms total)
T2C88 004:243 JLINK_IsHalted()  returns TRUE (0000ms, 1048ms total)
T2C88 004:243 JLINK_IsHalted()  returns TRUE (0000ms, 1048ms total)
T2C88 004:243 JLINK_IsHalted()  returns TRUE (0000ms, 1048ms total)
T2C88 004:243 JLINK_ReadReg(R15 (PC))  returns 0x00014CAE (0000ms, 1048ms total)
T2C88 004:243 JLINK_ReadReg(XPSR)  returns 0x21000000 (0000ms, 1048ms total)
T2C88 004:243 JLINK_ClrBPEx(BPHandle = 0x00000003)  returns 0x00 (0000ms, 1048ms total)
T2C88 004:243 JLINK_ReadMemU32(0xE000ED30, 0x0001 Items, ...) -- CPU_ReadMem(4 bytes @ 0xE000ED30) -- Data:  03 00 00 00  returns 0x01 (0003ms, 1051ms total)
T2C88 004:246 JLINK_ReadMemU32(0xE0001028, 0x0001 Items, ...) -- CPU_ReadMem(4 bytes @ 0xE0001028) -- Data:  00 00 00 00  returns 0x01 (0004ms, 1055ms total)
T2C88 004:250 JLINK_ReadMemU32(0xE0001038, 0x0001 Items, ...) -- CPU_ReadMem(4 bytes @ 0xE0001038) -- Data:  00 00 00 00  returns 0x01 (0004ms, 1059ms total)
T2C88 004:254 JLINK_ReadReg(R0)  returns 0x20003880 (0000ms, 1059ms total)
T2C88 004:254 JLINK_ReadReg(R1)  returns 0x000000FA (0000ms, 1059ms total)
T2C88 004:254 JLINK_ReadReg(R2)  returns 0x50000500 (0000ms, 1059ms total)
T2C88 004:254 JLINK_ReadReg(R3)  returns 0x00000000 (0000ms, 1059ms total)
T2C88 004:254 JLINK_ReadReg(R4)  returns 0x00000080 (0000ms, 1059ms total)
T2C88 004:254 JLINK_ReadReg(R5)  returns 0x20002828 (0000ms, 1059ms total)
T2C88 004:254 JLINK_ReadReg(R6)  returns 0x00000000 (0000ms, 1059ms total)
T2C88 004:254 JLINK_ReadReg(R7)  returns 0x00000000 (0000ms, 1059ms total)
T2C88 004:254 JLINK_ReadReg(R8)  returns 0xFFFFFFFF (0000ms, 1059ms total)
T2C88 004:254 JLINK_ReadReg(R9)  returns 0xFFFFFFFF (0000ms, 1059ms total)
T2C88 004:255 JLINK_ReadReg(R10)  returns 0x0001AC70 (0000ms, 1060ms total)
T2C88 004:255 JLINK_ReadReg(R11)  returns 0x0001AC70 (0000ms, 1060ms total)
T2C88 004:255 JLINK_ReadReg(R12)  returns 0xFFFFFFFF (0000ms, 1060ms total)
T2C88 004:255 JLINK_ReadReg(R13 (SP))  returns 0x20003880 (0000ms, 1060ms total)
T2C88 004:255 JLINK_ReadReg(R14)  returns 0x00018FE9 (0000ms, 1060ms total)
T2C88 004:255 JLINK_ReadReg(R15 (PC))  returns 0x00014CAE (0000ms, 1060ms total)
T2C88 004:255 JLINK_ReadReg(XPSR)  returns 0x21000000 (0000ms, 1060ms total)
T2C88 004:255 JLINK_ReadReg(MSP)  returns 0x20003880 (0000ms, 1060ms total)
T2C88 004:255 JLINK_ReadReg(PSP)  returns 0xFFFFFFFC (0000ms, 1060ms total)
T2C88 004:255 JLINK_ReadReg(CFBP)  returns 0x00000000 (0000ms, 1060ms total)
T24B8 004:257 JLINK_ReadMem (0x20003884, 0x0004 Bytes, ...) -- CPU_ReadMem(64 bytes @ 0x20003880) -- Updating C cache (64 bytes @ 0x20003880) -- Read from C cache (4 bytes @ 0x20003884) -- Data:  57 41 01 00  returns 0x00 (0004ms, 1064ms total)
T24B8 004:261 JLINK_ReadMem (0x20003880, 0x0002 Bytes, ...) -- Read from C cache (2 bytes @ 0x20003880) -- Data:  88 FA  returns 0x00 (0000ms, 1064ms total)
T24B8 004:264 JLINK_ReadMem (0x00014CA8, 0x003C Bytes, ...) -- CPU_ReadMem(128 bytes @ 0x00014C80) -- Updating C cache (128 bytes @ 0x00014C80) -- Read from C cache (60 bytes @ 0x00014CA8) -- Data:  FA 21 68 46 41 70 21 46 A8 20 04 F0 93 FA 69 46 ...  returns 0x00 (0004ms, 1068ms total)
T2C88 005:149 JLINK_Step() -- Read from C cache (2 bytes @ 0x00014CAE) -- CPU_ReadMem(4 bytes @ 0xE0001004) -- Simulated  returns 0x00 (0010ms, 1078ms total)
T2C88 005:159 JLINK_ReadReg(R15 (PC))  returns 0x00014CB0 (0000ms, 1078ms total)
T2C88 005:159 JLINK_ReadReg(XPSR)  returns 0x21000000 (0000ms, 1078ms total)
T2C88 005:159 JLINK_Step() -- Read from C cache (2 bytes @ 0x00014CB0) -- Simulated  returns 0x00 (0000ms, 1078ms total)
T2C88 005:159 JLINK_ReadReg(R15 (PC))  returns 0x00014CB2 (0000ms, 1078ms total)
T2C88 005:159 JLINK_ReadReg(XPSR)  returns 0x21000000 (0000ms, 1078ms total)
T2C88 005:160 JLINK_Step() -- Read from C cache (2 bytes @ 0x00014CB2) -- Read from C cache (2 bytes @ 0x00014CB4) -- Simulated  returns 0x00 (0000ms, 1078ms total)
T2C88 005:160 JLINK_ReadReg(R15 (PC))  returns 0x000191DC (0000ms, 1078ms total)
T2C88 005:160 JLINK_ReadReg(XPSR)  returns 0x21000000 (0000ms, 1078ms total)
T2C88 005:160 JLINK_ReadReg(R0)  returns 0x000000A8 (0000ms, 1078ms total)
T2C88 005:160 JLINK_ReadReg(R1)  returns 0x00000080 (0000ms, 1078ms total)
T2C88 005:160 JLINK_ReadReg(R2)  returns 0x50000500 (0000ms, 1078ms total)
T2C88 005:160 JLINK_ReadReg(R3)  returns 0x00000000 (0000ms, 1078ms total)
T2C88 005:160 JLINK_ReadReg(R4)  returns 0x00000080 (0000ms, 1078ms total)
T2C88 005:160 JLINK_ReadReg(R5)  returns 0x20002828 (0000ms, 1078ms total)
T2C88 005:160 JLINK_ReadReg(R6)  returns 0x00000000 (0000ms, 1078ms total)
T2C88 005:160 JLINK_ReadReg(R7)  returns 0x00000000 (0000ms, 1078ms total)
T2C88 005:160 JLINK_ReadReg(R8)  returns 0xFFFFFFFF (0000ms, 1078ms total)
T2C88 005:160 JLINK_ReadReg(R9)  returns 0xFFFFFFFF (0000ms, 1078ms total)
T2C88 005:160 JLINK_ReadReg(R10)  returns 0x0001AC70 (0000ms, 1078ms total)
T2C88 005:160 JLINK_ReadReg(R11)  returns 0x0001AC70 (0000ms, 1078ms total)
T2C88 005:160 JLINK_ReadReg(R12)  returns 0xFFFFFFFF (0001ms, 1079ms total)
T2C88 005:161 JLINK_ReadReg(R13 (SP))  returns 0x20003880 (0000ms, 1079ms total)
T2C88 005:161 JLINK_ReadReg(R14)  returns 0x00014CB7 (0000ms, 1079ms total)
T2C88 005:161 JLINK_ReadReg(R15 (PC))  returns 0x000191DC (0000ms, 1079ms total)
T2C88 005:161 JLINK_ReadReg(XPSR)  returns 0x21000000 (0000ms, 1079ms total)
T2C88 005:161 JLINK_ReadReg(MSP)  returns 0x20003880 (0000ms, 1079ms total)
T2C88 005:161 JLINK_ReadReg(PSP)  returns 0xFFFFFFFC (0000ms, 1079ms total)
T2C88 005:161 JLINK_ReadReg(CFBP)  returns 0x00000000 (0000ms, 1079ms total)
T24B8 005:161 JLINK_ReadMem (0x20003884, 0x0004 Bytes, ...) -- Read from C cache (4 bytes @ 0x20003884) -- Data:  57 41 01 00  returns 0x00 (0000ms, 1079ms total)
T24B8 005:161 JLINK_ReadMem (0x2000386C, 0x0001 Bytes, ...) -- CPU_ReadMem(64 bytes @ 0x20003840) -- Updating C cache (64 bytes @ 0x20003840) -- Read from C cache (1 bytes @ 0x2000386C) -- Data:  00  returns 0x00 (0003ms, 1082ms total)
T24B8 005:165 JLINK_ReadMem (0x00000000, 0x0001 Bytes, ...) -- CPU_ReadMem(64 bytes @ 0x00000000) -- Updating C cache (64 bytes @ 0x00000000) -- Read from C cache (1 bytes @ 0x00000000) -- Data:  48  returns 0x00 (0003ms, 1085ms total)
T24B8 005:168 JLINK_ReadMem (0x00000000, 0x0002 Bytes, ...) -- Read from C cache (2 bytes @ 0x00000000) -- Data:  48 1C  returns 0x00 (0000ms, 1085ms total)
T24B8 005:168 JLINK_ReadMem (0x20003868, 0x0002 Bytes, ...) -- Read from C cache (2 bytes @ 0x20003868) -- Data:  BE 41  returns 0x00 (0000ms, 1085ms total)
T24B8 005:177 JLINK_ReadMem (0x20003880, 0x0002 Bytes, ...) -- Read from C cache (2 bytes @ 0x20003880) -- Data:  88 FA  returns 0x00 (0001ms, 1086ms total)
T24B8 005:179 JLINK_ReadMem (0x000191D8, 0x003C Bytes, ...) -- CPU_ReadMem(128 bytes @ 0x000191C0) -- Updating C cache (128 bytes @ 0x000191C0) -- Read from C cache (60 bytes @ 0x000191D8) -- Data:  20 B0 10 BD 7C B5 05 46 0C 46 08 20 00 F0 9C F8 ...  returns 0x00 (0005ms, 1091ms total)
T2C88 005:998 JLINK_Step() -- Read from C cache (2 bytes @ 0x000191DC) -- CPU_WriteMem(24 bytes @ 0x20003868) -- Simulated  returns 0x00 (0007ms, 1098ms total)
T2C88 006:005 JLINK_ReadReg(R15 (PC))  returns 0x000191DE (0000ms, 1098ms total)
T2C88 006:005 JLINK_ReadReg(XPSR)  returns 0x21000000 (0000ms, 1098ms total)
T2C88 006:005 JLINK_Step() -- Read from C cache (2 bytes @ 0x000191DE) -- Simulated  returns 0x00 (0000ms, 1098ms total)
T2C88 006:005 JLINK_ReadReg(R15 (PC))  returns 0x000191E0 (0000ms, 1098ms total)
T2C88 006:005 JLINK_ReadReg(XPSR)  returns 0x21000000 (0000ms, 1098ms total)
T2C88 006:005 JLINK_Step() -- Read from C cache (2 bytes @ 0x000191E0) -- Simulated  returns 0x00 (0000ms, 1098ms total)
T2C88 006:005 JLINK_ReadReg(R15 (PC))  returns 0x000191E2 (0000ms, 1098ms total)
T2C88 006:005 JLINK_ReadReg(XPSR)  returns 0x21000000 (0000ms, 1098ms total)
T2C88 006:005 JLINK_ReadReg(R0)  returns 0x000000A8 (0000ms, 1098ms total)
T2C88 006:005 JLINK_ReadReg(R1)  returns 0x00000080 (0000ms, 1098ms total)
T2C88 006:005 JLINK_ReadReg(R2)  returns 0x50000500 (0000ms, 1098ms total)
T2C88 006:005 JLINK_ReadReg(R3)  returns 0x00000000 (0001ms, 1099ms total)
T2C88 006:006 JLINK_ReadReg(R4)  returns 0x00000080 (0000ms, 1099ms total)
T2C88 006:006 JLINK_ReadReg(R5)  returns 0x000000A8 (0000ms, 1099ms total)
T2C88 006:006 JLINK_ReadReg(R6)  returns 0x00000000 (0000ms, 1099ms total)
T2C88 006:006 JLINK_ReadReg(R7)  returns 0x00000000 (0000ms, 1099ms total)
T2C88 006:006 JLINK_ReadReg(R8)  returns 0xFFFFFFFF (0000ms, 1099ms total)
T2C88 006:006 JLINK_ReadReg(R9)  returns 0xFFFFFFFF (0000ms, 1099ms total)
T2C88 006:006 JLINK_ReadReg(R10)  returns 0x0001AC70 (0000ms, 1099ms total)
T2C88 006:006 JLINK_ReadReg(R11)  returns 0x0001AC70 (0000ms, 1099ms total)
T2C88 006:006 JLINK_ReadReg(R12)  returns 0xFFFFFFFF (0000ms, 1099ms total)
T2C88 006:006 JLINK_ReadReg(R13 (SP))  returns 0x20003868 (0000ms, 1099ms total)
T2C88 006:006 JLINK_ReadReg(R14)  returns 0x00014CB7 (0000ms, 1099ms total)
T2C88 006:006 JLINK_ReadReg(R15 (PC))  returns 0x000191E2 (0000ms, 1099ms total)
T2C88 006:006 JLINK_ReadReg(XPSR)  returns 0x21000000 (0000ms, 1099ms total)
T2C88 006:006 JLINK_ReadReg(MSP)  returns 0x20003868 (0000ms, 1099ms total)
T2C88 006:006 JLINK_ReadReg(PSP)  returns 0xFFFFFFFC (0001ms, 1100ms total)
T2C88 006:007 JLINK_ReadReg(CFBP)  returns 0x00000000 (0000ms, 1100ms total)
T24B8 006:007 JLINK_ReadMem (0x2000387C, 0x0004 Bytes, ...) -- CPU_ReadMem(64 bytes @ 0x20003840) -- Updating C cache (64 bytes @ 0x20003840) -- Read from C cache (4 bytes @ 0x2000387C) -- Data:  B7 4C 01 00  returns 0x00 (0003ms, 1103ms total)
T24B8 006:010 JLINK_ReadMem (0x20003870, 0x0004 Bytes, ...) -- Read from C cache (4 bytes @ 0x20003870) -- Data:  80 00 00 00  returns 0x00 (0000ms, 1103ms total)
T24B8 006:010 JLINK_ReadMem (0x20003874, 0x0004 Bytes, ...) -- Read from C cache (4 bytes @ 0x20003874) -- Data:  28 28 00 20  returns 0x00 (0001ms, 1104ms total)
T24B8 006:011 JLINK_ReadMem (0x20003878, 0x0004 Bytes, ...) -- Read from C cache (4 bytes @ 0x20003878) -- Data:  00 00 00 00  returns 0x00 (0000ms, 1104ms total)
T24B8 006:011 JLINK_ReadMem (0x20003884, 0x0004 Bytes, ...) -- Read from C cache (4 bytes @ 0x20003884) -- Data:  57 41 01 00  returns 0x00 (0000ms, 1104ms total)
T24B8 006:011 JLINK_ReadMem (0x2000386C, 0x0001 Bytes, ...) -- Read from C cache (1 bytes @ 0x2000386C) -- Data:  00  returns 0x00 (0000ms, 1104ms total)
T24B8 006:012 JLINK_ReadMem (0x20003868, 0x0002 Bytes, ...) -- Read from C cache (2 bytes @ 0x20003868) -- Data:  00 05  returns 0x00 (0000ms, 1104ms total)
T24B8 006:013 JLINK_ReadMem (0x20003880, 0x0002 Bytes, ...) -- Read from C cache (2 bytes @ 0x20003880) -- Data:  88 FA  returns 0x00 (0000ms, 1104ms total)
T24B8 006:015 JLINK_ReadMem (0x000191E0, 0x003C Bytes, ...) -- Read from C cache (60 bytes @ 0x000191E0) -- Data:  0C 46 08 20 00 F0 9C F8 FF 21 01 91 20 04 01 0E ...  returns 0x00 (0000ms, 1104ms total)
T2C88 006:365 JLINK_Step() -- Read from C cache (2 bytes @ 0x000191E2) -- Simulated  returns 0x00 (0004ms, 1108ms total)
T2C88 006:369 JLINK_ReadReg(R15 (PC))  returns 0x000191E4 (0000ms, 1108ms total)
T2C88 006:369 JLINK_ReadReg(XPSR)  returns 0x21000000 (0000ms, 1108ms total)
T2C88 006:369 JLINK_Step() -- Read from C cache (2 bytes @ 0x000191E4) -- Read from C cache (2 bytes @ 0x000191E6) -- Simulated  returns 0x00 (0000ms, 1108ms total)
T2C88 006:369 JLINK_ReadReg(R15 (PC))  returns 0x00019320 (0000ms, 1108ms total)
T2C88 006:369 JLINK_ReadReg(XPSR)  returns 0x21000000 (0000ms, 1108ms total)
T2C88 006:369 JLINK_ReadReg(R0)  returns 0x00000008 (0000ms, 1108ms total)
T2C88 006:369 JLINK_ReadReg(R1)  returns 0x00000080 (0000ms, 1108ms total)
T2C88 006:369 JLINK_ReadReg(R2)  returns 0x50000500 (0000ms, 1108ms total)
T2C88 006:369 JLINK_ReadReg(R3)  returns 0x00000000 (0000ms, 1108ms total)
T2C88 006:369 JLINK_ReadReg(R4)  returns 0x00000080 (0001ms, 1109ms total)
T2C88 006:370 JLINK_ReadReg(R5)  returns 0x000000A8 (0000ms, 1109ms total)
T2C88 006:370 JLINK_ReadReg(R6)  returns 0x00000000 (0000ms, 1109ms total)
T2C88 006:370 JLINK_ReadReg(R7)  returns 0x00000000 (0000ms, 1109ms total)
T2C88 006:370 JLINK_ReadReg(R8)  returns 0xFFFFFFFF (0000ms, 1109ms total)
T2C88 006:370 JLINK_ReadReg(R9)  returns 0xFFFFFFFF (0000ms, 1109ms total)
T2C88 006:370 JLINK_ReadReg(R10)  returns 0x0001AC70 (0000ms, 1109ms total)
T2C88 006:370 JLINK_ReadReg(R11)  returns 0x0001AC70 (0000ms, 1109ms total)
T2C88 006:370 JLINK_ReadReg(R12)  returns 0xFFFFFFFF (0000ms, 1109ms total)
T2C88 006:370 JLINK_ReadReg(R13 (SP))  returns 0x20003868 (0000ms, 1109ms total)
T2C88 006:370 JLINK_ReadReg(R14)  returns 0x000191E9 (0000ms, 1109ms total)
T2C88 006:370 JLINK_ReadReg(R15 (PC))  returns 0x00019320 (0000ms, 1109ms total)
T2C88 006:370 JLINK_ReadReg(XPSR)  returns 0x21000000 (0000ms, 1109ms total)
T2C88 006:370 JLINK_ReadReg(MSP)  returns 0x20003868 (0000ms, 1109ms total)
T2C88 006:370 JLINK_ReadReg(PSP)  returns 0xFFFFFFFC (0000ms, 1109ms total)
T2C88 006:370 JLINK_ReadReg(CFBP)  returns 0x00000000 (0000ms, 1109ms total)
T24B8 006:373 JLINK_ReadMem (0x2000387C, 0x0004 Bytes, ...) -- Read from C cache (4 bytes @ 0x2000387C) -- Data:  B7 4C 01 00  returns 0x00 (0000ms, 1109ms total)
T24B8 006:373 JLINK_ReadMem (0x20003870, 0x0004 Bytes, ...) -- Read from C cache (4 bytes @ 0x20003870) -- Data:  80 00 00 00  returns 0x00 (0000ms, 1109ms total)
T24B8 006:373 JLINK_ReadMem (0x20003874, 0x0004 Bytes, ...) -- Read from C cache (4 bytes @ 0x20003874) -- Data:  28 28 00 20  returns 0x00 (0000ms, 1109ms total)
T24B8 006:373 JLINK_ReadMem (0x20003878, 0x0004 Bytes, ...) -- Read from C cache (4 bytes @ 0x20003878) -- Data:  00 00 00 00  returns 0x00 (0000ms, 1109ms total)
T24B8 006:373 JLINK_ReadMem (0x20003884, 0x0004 Bytes, ...) -- Read from C cache (4 bytes @ 0x20003884) -- Data:  57 41 01 00  returns 0x00 (0000ms, 1109ms total)
T24B8 006:389 JLINK_ReadMem (0x2000386C, 0x0001 Bytes, ...) -- Read from C cache (1 bytes @ 0x2000386C) -- Data:  00  returns 0x00 (0000ms, 1109ms total)
T24B8 006:390 JLINK_ReadMem (0x20003868, 0x0002 Bytes, ...) -- Read from C cache (2 bytes @ 0x20003868) -- Data:  00 05  returns 0x00 (0000ms, 1109ms total)
T24B8 006:390 JLINK_ReadMem (0x20003880, 0x0002 Bytes, ...) -- Read from C cache (2 bytes @ 0x20003880) -- Data:  88 FA  returns 0x00 (0000ms, 1109ms total)
T24B8 006:393 JLINK_ReadMem (0x00019220, 0x003C Bytes, ...) -- CPU_ReadMem(64 bytes @ 0x00019240) -- Updating C cache (64 bytes @ 0x00019240) -- Read from C cache (60 bytes @ 0x00019220) -- Data:  7C BD FF B5 81 B0 06 46 0C 46 17 46 08 20 00 F0 ...  returns 0x00 (0004ms, 1113ms total)
T24B8 006:397 JLINK_ReadMem (0x0001925C, 0x003C Bytes, ...) -- CPU_ReadMem(64 bytes @ 0x00019280) -- Updating C cache (64 bytes @ 0x00019280) -- Read from C cache (60 bytes @ 0x0001925C) -- Data:  79 FE 00 28 02 D0 01 25 00 E0 00 25 28 46 05 B0 ...  returns 0x00 (0003ms, 1116ms total)
T24B8 006:400 JLINK_ReadMem (0x00019298, 0x003C Bytes, ...) -- CPU_ReadMem(64 bytes @ 0x000192C0) -- Updating C cache (64 bytes @ 0x000192C0) -- Read from C cache (60 bytes @ 0x00019298) -- Data:  07 90 28 0C 07 04 01 20 00 04 3E 18 01 20 06 90 ...  returns 0x00 (0003ms, 1119ms total)
T24B8 006:403 JLINK_ReadMem (0x000192D4, 0x003C Bytes, ...) -- CPU_ReadMem(64 bytes @ 0x00019300) -- Updating C cache (64 bytes @ 0x00019300) -- Read from C cache (60 bytes @ 0x000192D4) -- Data:  37 46 01 20 00 04 3E 18 3C 46 00 BF 07 98 B0 42 ...  returns 0x00 (0004ms, 1123ms total)
T24B8 006:407 JLINK_ReadMem (0x00019310, 0x003C Bytes, ...) -- CPU_ReadMem(64 bytes @ 0x00019340) -- Updating C cache (64 bytes @ 0x00019340) -- Read from C cache (60 bytes @ 0x00019310) -- Data:  0A 18 A0 B2 01 46 03 90 04 98 FF F7 82 FF AE E7 ...  returns 0x00 (0003ms, 1126ms total)
T2C88 006:953 JLINK_Step() -- Read from C cache (2 bytes @ 0x00019320) -- Simulated  returns 0x00 (0004ms, 1130ms total)
T2C88 006:957 JLINK_ReadReg(R15 (PC))  returns 0x00019322 (0000ms, 1130ms total)
T2C88 006:957 JLINK_ReadReg(XPSR)  returns 0x21000000 (0000ms, 1130ms total)
T2C88 006:957 JLINK_Step() -- Read from C cache (2 bytes @ 0x00019322) -- Simulated  returns 0x00 (0000ms, 1130ms total)
T2C88 006:957 JLINK_ReadReg(R15 (PC))  returns 0x00019324 (0000ms, 1130ms total)
T2C88 006:957 JLINK_ReadReg(XPSR)  returns 0x01000000 (0000ms, 1130ms total)
T2C88 006:957 JLINK_Step() -- Read from C cache (2 bytes @ 0x00019324) -- Read from C cache (4 bytes @ 0x0001932C) -- Simulated  returns 0x00 (0000ms, 1130ms total)
T2C88 006:957 JLINK_ReadReg(R15 (PC))  returns 0x00019326 (0000ms, 1130ms total)
T2C88 006:957 JLINK_ReadReg(XPSR)  returns 0x01000000 (0001ms, 1131ms total)
T2C88 006:958 JLINK_Step() -- Read from C cache (2 bytes @ 0x00019326) -- Not simulated -- CPU_WriteMem(4 bytes @ 0xE0002008) -- CPU_WriteMem(4 bytes @ 0xE0001004)  returns 0x00 (0022ms, 1153ms total)
T2C88 006:980 JLINK_ReadReg(R15 (PC))  returns 0x00019328 (0000ms, 1153ms total)
T2C88 006:980 JLINK_ReadReg(XPSR)  returns 0x01000000 (0000ms, 1153ms total)
T2C88 006:980 JLINK_ReadReg(R0)  returns 0x00000008 (0000ms, 1153ms total)
T2C88 006:980 JLINK_ReadReg(R1)  returns 0x00000100 (0000ms, 1153ms total)
T2C88 006:980 JLINK_ReadReg(R2)  returns 0x50000500 (0000ms, 1153ms total)
T2C88 006:980 JLINK_ReadReg(R3)  returns 0x00000000 (0000ms, 1153ms total)
T2C88 006:980 JLINK_ReadReg(R4)  returns 0x00000080 (0000ms, 1153ms total)
T2C88 006:980 JLINK_ReadReg(R5)  returns 0x000000A8 (0000ms, 1153ms total)
T2C88 006:980 JLINK_ReadReg(R6)  returns 0x00000000 (0000ms, 1153ms total)
T2C88 006:980 JLINK_ReadReg(R7)  returns 0x00000000 (0000ms, 1153ms total)
T2C88 006:980 JLINK_ReadReg(R8)  returns 0xFFFFFFFF (0000ms, 1153ms total)
T2C88 006:980 JLINK_ReadReg(R9)  returns 0xFFFFFFFF (0000ms, 1153ms total)
T2C88 006:980 JLINK_ReadReg(R10)  returns 0x0001AC70 (0000ms, 1153ms total)
T2C88 006:980 JLINK_ReadReg(R11)  returns 0x0001AC70 (0000ms, 1153ms total)
T2C88 006:980 JLINK_ReadReg(R12)  returns 0xFFFFFFFF (0000ms, 1153ms total)
T2C88 006:980 JLINK_ReadReg(R13 (SP))  returns 0x20003868 (0000ms, 1153ms total)
T2C88 006:980 JLINK_ReadReg(R14)  returns 0x000191E9 (0000ms, 1153ms total)
T2C88 006:980 JLINK_ReadReg(R15 (PC))  returns 0x00019328 (0000ms, 1153ms total)
T2C88 006:980 JLINK_ReadReg(XPSR)  returns 0x01000000 (0000ms, 1153ms total)
T2C88 006:980 JLINK_ReadReg(MSP)  returns 0x20003868 (0000ms, 1153ms total)
T2C88 006:980 JLINK_ReadReg(PSP)  returns 0xFFFFFFFC (0000ms, 1153ms total)
T2C88 006:980 JLINK_ReadReg(CFBP)  returns 0x00000000 (0000ms, 1153ms total)
T24B8 006:984 JLINK_ReadMem (0x2000387C, 0x0004 Bytes, ...) -- CPU_ReadMem(64 bytes @ 0x20003840) -- Updating C cache (64 bytes @ 0x20003840) -- Read from C cache (4 bytes @ 0x2000387C) -- Data:  B7 4C 01 00  returns 0x00 (0003ms, 1156ms total)
T24B8 006:987 JLINK_ReadMem (0x20003870, 0x0004 Bytes, ...) -- Read from C cache (4 bytes @ 0x20003870) -- Data:  80 00 00 00  returns 0x00 (0000ms, 1156ms total)
T24B8 006:987 JLINK_ReadMem (0x20003874, 0x0004 Bytes, ...) -- Read from C cache (4 bytes @ 0x20003874) -- Data:  28 28 00 20  returns 0x00 (0000ms, 1156ms total)
T24B8 006:987 JLINK_ReadMem (0x20003878, 0x0004 Bytes, ...) -- Read from C cache (4 bytes @ 0x20003878) -- Data:  00 00 00 00  returns 0x00 (0000ms, 1156ms total)
T24B8 006:987 JLINK_ReadMem (0x20003884, 0x0004 Bytes, ...) -- CPU_ReadMem(64 bytes @ 0x20003880) -- Updating C cache (64 bytes @ 0x20003880) -- Read from C cache (4 bytes @ 0x20003884) -- Data:  57 41 01 00  returns 0x00 (0004ms, 1160ms total)
T24B8 006:991 JLINK_ReadMem (0x2000386C, 0x0001 Bytes, ...) -- Read from C cache (1 bytes @ 0x2000386C) -- Data:  00  returns 0x00 (0000ms, 1160ms total)
T24B8 006:991 JLINK_ReadMem (0x20003868, 0x0002 Bytes, ...) -- Read from C cache (2 bytes @ 0x20003868) -- Data:  00 05  returns 0x00 (0000ms, 1160ms total)
T24B8 006:991 JLINK_ReadMem (0x20003880, 0x0002 Bytes, ...) -- Read from C cache (2 bytes @ 0x20003880) -- Data:  88 FA  returns 0x00 (0000ms, 1160ms total)
T24B8 006:992 JLINK_ReadMem (0x00019326, 0x0002 Bytes, ...) -- CPU_ReadMem(64 bytes @ 0x00019300) -- Updating C cache (64 bytes @ 0x00019300) -- Read from C cache (2 bytes @ 0x00019326) -- Data:  91 60  returns 0x00 (0004ms, 1164ms total)
T24B8 006:996 JLINK_ReadMem (0x00019328, 0x003C Bytes, ...) -- CPU_ReadMem(64 bytes @ 0x00019340) -- Updating C cache (64 bytes @ 0x00019340) -- Read from C cache (60 bytes @ 0x00019328) -- Data:  70 47 00 00 00 05 00 50 0D 21 00 20 88 AB 01 00 ...  returns 0x00 (0003ms, 1167ms total)
T2C88 007:291 JLINK_Step() -- Read from C cache (2 bytes @ 0x00019328) -- CPU_ReadMem(4 bytes @ 0xE0001004) -- Simulated  returns 0x00 (0003ms, 1170ms total)
T2C88 007:294 JLINK_ReadReg(R15 (PC))  returns 0x000191E8 (0000ms, 1170ms total)
T2C88 007:294 JLINK_ReadReg(XPSR)  returns 0x01000000 (0000ms, 1170ms total)
T2C88 007:294 JLINK_ReadReg(R0)  returns 0x00000008 (0000ms, 1170ms total)
T2C88 007:294 JLINK_ReadReg(R1)  returns 0x00000100 (0000ms, 1170ms total)
T2C88 007:294 JLINK_ReadReg(R2)  returns 0x50000500 (0000ms, 1170ms total)
T2C88 007:294 JLINK_ReadReg(R3)  returns 0x00000000 (0000ms, 1170ms total)
T2C88 007:294 JLINK_ReadReg(R4)  returns 0x00000080 (0000ms, 1170ms total)
T2C88 007:294 JLINK_ReadReg(R5)  returns 0x000000A8 (0000ms, 1170ms total)
T2C88 007:294 JLINK_ReadReg(R6)  returns 0x00000000 (0000ms, 1170ms total)
T2C88 007:294 JLINK_ReadReg(R7)  returns 0x00000000 (0000ms, 1170ms total)
T2C88 007:294 JLINK_ReadReg(R8)  returns 0xFFFFFFFF (0000ms, 1170ms total)
T2C88 007:294 JLINK_ReadReg(R9)  returns 0xFFFFFFFF (0000ms, 1170ms total)
T2C88 007:294 JLINK_ReadReg(R10)  returns 0x0001AC70 (0000ms, 1170ms total)
T2C88 007:294 JLINK_ReadReg(R11)  returns 0x0001AC70 (0000ms, 1170ms total)
T2C88 007:294 JLINK_ReadReg(R12)  returns 0xFFFFFFFF (0000ms, 1170ms total)
T2C88 007:294 JLINK_ReadReg(R13 (SP))  returns 0x20003868 (0000ms, 1170ms total)
T2C88 007:294 JLINK_ReadReg(R14)  returns 0x000191E9 (0000ms, 1170ms total)
T2C88 007:294 JLINK_ReadReg(R15 (PC))  returns 0x000191E8 (0000ms, 1170ms total)
T2C88 007:294 JLINK_ReadReg(XPSR)  returns 0x01000000 (0000ms, 1170ms total)
T2C88 007:295 JLINK_ReadReg(MSP)  returns 0x20003868 (0000ms, 1171ms total)
T2C88 007:295 JLINK_ReadReg(PSP)  returns 0xFFFFFFFC (0000ms, 1171ms total)
T2C88 007:295 JLINK_ReadReg(CFBP)  returns 0x00000000 (0000ms, 1171ms total)
T24B8 007:295 JLINK_ReadMem (0x2000387C, 0x0004 Bytes, ...) -- Read from C cache (4 bytes @ 0x2000387C) -- Data:  B7 4C 01 00  returns 0x00 (0000ms, 1171ms total)
T24B8 007:295 JLINK_ReadMem (0x20003870, 0x0004 Bytes, ...) -- Read from C cache (4 bytes @ 0x20003870) -- Data:  80 00 00 00  returns 0x00 (0001ms, 1172ms total)
T24B8 007:296 JLINK_ReadMem (0x20003874, 0x0004 Bytes, ...) -- Read from C cache (4 bytes @ 0x20003874) -- Data:  28 28 00 20  returns 0x00 (0000ms, 1172ms total)
T24B8 007:296 JLINK_ReadMem (0x20003878, 0x0004 Bytes, ...) -- Read from C cache (4 bytes @ 0x20003878) -- Data:  00 00 00 00  returns 0x00 (0000ms, 1172ms total)
T24B8 007:296 JLINK_ReadMem (0x20003884, 0x0004 Bytes, ...) -- Read from C cache (4 bytes @ 0x20003884) -- Data:  57 41 01 00  returns 0x00 (0000ms, 1172ms total)
T24B8 007:312 JLINK_ReadMem (0x2000386C, 0x0001 Bytes, ...) -- Read from C cache (1 bytes @ 0x2000386C) -- Data:  00  returns 0x00 (0000ms, 1172ms total)
T24B8 007:312 JLINK_ReadMem (0x20003868, 0x0002 Bytes, ...) -- Read from C cache (2 bytes @ 0x20003868) -- Data:  00 05  returns 0x00 (0000ms, 1172ms total)
T24B8 007:312 JLINK_ReadMem (0x20003880, 0x0002 Bytes, ...) -- Read from C cache (2 bytes @ 0x20003880) -- Data:  88 FA  returns 0x00 (0000ms, 1172ms total)
T24B8 007:314 JLINK_ReadMem (0x000191E4, 0x003C Bytes, ...) -- CPU_ReadMem(128 bytes @ 0x000191C0) -- Updating C cache (128 bytes @ 0x000191C0) -- Read from C cache (60 bytes @ 0x000191E4) -- Data:  00 F0 9C F8 FF 21 01 91 20 04 01 0E 68 46 01 70 ...  returns 0x00 (0004ms, 1176ms total)
T24B8 007:332 JLINK_ReadMem (0x000191E2, 0x0002 Bytes, ...) -- Read from C cache (2 bytes @ 0x000191E2) -- Data:  08 20  returns 0x00 (0000ms, 1176ms total)
T2C88 008:204 JLINK_Step() -- Read from C cache (2 bytes @ 0x000191E8) -- Simulated  returns 0x00 (0013ms, 1189ms total)
T2C88 008:217 JLINK_ReadReg(R15 (PC))  returns 0x000191EA (0000ms, 1189ms total)
T2C88 008:217 JLINK_ReadReg(XPSR)  returns 0x01000000 (0000ms, 1189ms total)
T2C88 008:217 JLINK_Step() -- Read from C cache (2 bytes @ 0x000191EA) -- CPU_WriteMem(4 bytes @ 0x2000386C) -- Simulated  returns 0x00 (0003ms, 1192ms total)
T2C88 008:220 JLINK_ReadReg(R15 (PC))  returns 0x000191EC (0001ms, 1193ms total)
T2C88 008:221 JLINK_ReadReg(XPSR)  returns 0x01000000 (0000ms, 1193ms total)
T2C88 008:221 JLINK_ReadReg(R0)  returns 0x00000008 (0000ms, 1193ms total)
T2C88 008:221 JLINK_ReadReg(R1)  returns 0x000000FF (0000ms, 1193ms total)
T2C88 008:221 JLINK_ReadReg(R2)  returns 0x50000500 (0000ms, 1193ms total)
T2C88 008:221 JLINK_ReadReg(R3)  returns 0x00000000 (0000ms, 1193ms total)
T2C88 008:221 JLINK_ReadReg(R4)  returns 0x00000080 (0000ms, 1193ms total)
T2C88 008:221 JLINK_ReadReg(R5)  returns 0x000000A8 (0000ms, 1193ms total)
T2C88 008:221 JLINK_ReadReg(R6)  returns 0x00000000 (0000ms, 1193ms total)
T2C88 008:221 JLINK_ReadReg(R7)  returns 0x00000000 (0000ms, 1193ms total)
T2C88 008:221 JLINK_ReadReg(R8)  returns 0xFFFFFFFF (0000ms, 1193ms total)
T2C88 008:221 JLINK_ReadReg(R9)  returns 0xFFFFFFFF (0000ms, 1193ms total)
T2C88 008:221 JLINK_ReadReg(R10)  returns 0x0001AC70 (0000ms, 1193ms total)
T2C88 008:221 JLINK_ReadReg(R11)  returns 0x0001AC70 (0000ms, 1193ms total)
T2C88 008:221 JLINK_ReadReg(R12)  returns 0xFFFFFFFF (0000ms, 1193ms total)
T2C88 008:221 JLINK_ReadReg(R13 (SP))  returns 0x20003868 (0000ms, 1193ms total)
T2C88 008:221 JLINK_ReadReg(R14)  returns 0x000191E9 (0000ms, 1193ms total)
T2C88 008:221 JLINK_ReadReg(R15 (PC))  returns 0x000191EC (0000ms, 1193ms total)
T2C88 008:221 JLINK_ReadReg(XPSR)  returns 0x01000000 (0000ms, 1193ms total)
T2C88 008:221 JLINK_ReadReg(MSP)  returns 0x20003868 (0000ms, 1193ms total)
T2C88 008:221 JLINK_ReadReg(PSP)  returns 0xFFFFFFFC (0000ms, 1193ms total)
T2C88 008:221 JLINK_ReadReg(CFBP)  returns 0x00000000 (0000ms, 1193ms total)
T24B8 008:221 JLINK_ReadMem (0x2000387C, 0x0004 Bytes, ...) -- CPU_ReadMem(64 bytes @ 0x20003840) -- Updating C cache (64 bytes @ 0x20003840) -- Read from C cache (4 bytes @ 0x2000387C) -- Data:  B7 4C 01 00  returns 0x00 (0004ms, 1197ms total)
T24B8 008:225 JLINK_ReadMem (0x20003870, 0x0004 Bytes, ...) -- Read from C cache (4 bytes @ 0x20003870) -- Data:  80 00 00 00  returns 0x00 (0000ms, 1197ms total)
T24B8 008:225 JLINK_ReadMem (0x20003874, 0x0004 Bytes, ...) -- Read from C cache (4 bytes @ 0x20003874) -- Data:  28 28 00 20  returns 0x00 (0000ms, 1197ms total)
T24B8 008:225 JLINK_ReadMem (0x20003878, 0x0004 Bytes, ...) -- Read from C cache (4 bytes @ 0x20003878) -- Data:  00 00 00 00  returns 0x00 (0000ms, 1197ms total)
T24B8 008:225 JLINK_ReadMem (0x20003884, 0x0004 Bytes, ...) -- Read from C cache (4 bytes @ 0x20003884) -- Data:  57 41 01 00  returns 0x00 (0000ms, 1197ms total)
T24B8 008:225 JLINK_ReadMem (0x2000386C, 0x0001 Bytes, ...) -- Read from C cache (1 bytes @ 0x2000386C) -- Data:  FF  returns 0x00 (0000ms, 1197ms total)
T24B8 008:226 JLINK_ReadMem (0x20003868, 0x0002 Bytes, ...) -- Read from C cache (2 bytes @ 0x20003868) -- Data:  00 05  returns 0x00 (0000ms, 1197ms total)
T24B8 008:226 JLINK_ReadMem (0x20003880, 0x0002 Bytes, ...) -- Read from C cache (2 bytes @ 0x20003880) -- Data:  88 FA  returns 0x00 (0000ms, 1197ms total)
T24B8 008:228 JLINK_ReadMem (0x000191EA, 0x0002 Bytes, ...) -- Read from C cache (2 bytes @ 0x000191EA) -- Data:  01 91  returns 0x00 (0000ms, 1197ms total)
T24B8 008:228 JLINK_ReadMem (0x000191EC, 0x003C Bytes, ...) -- Read from C cache (60 bytes @ 0x000191EC) -- Data:  20 04 01 0E 68 46 01 70 44 70 00 23 02 22 69 46 ...  returns 0x00 (0000ms, 1197ms total)
T2C88 008:630 JLINK_Step() -- Read from C cache (2 bytes @ 0x000191EC) -- Simulated  returns 0x00 (0000ms, 1197ms total)
T2C88 008:630 JLINK_ReadReg(R15 (PC))  returns 0x000191EE (0000ms, 1197ms total)
T2C88 008:630 JLINK_ReadReg(XPSR)  returns 0x01000000 (0000ms, 1197ms total)
T2C88 008:630 JLINK_Step() -- Read from C cache (2 bytes @ 0x000191EE) -- Simulated  returns 0x00 (0000ms, 1197ms total)
T2C88 008:630 JLINK_ReadReg(R15 (PC))  returns 0x000191F0 (0000ms, 1197ms total)
T2C88 008:630 JLINK_ReadReg(XPSR)  returns 0x61000000 (0000ms, 1197ms total)
T2C88 008:630 JLINK_Step() -- Read from C cache (2 bytes @ 0x000191F0) -- Simulated  returns 0x00 (0001ms, 1198ms total)
T2C88 008:631 JLINK_ReadReg(R15 (PC))  returns 0x000191F2 (0000ms, 1198ms total)
T2C88 008:631 JLINK_ReadReg(XPSR)  returns 0x61000000 (0000ms, 1198ms total)
T2C88 008:631 JLINK_Step() -- Read from C cache (2 bytes @ 0x000191F2) -- CPU_WriteMem(1 bytes @ 0x20003868) -- Simulated  returns 0x00 (0006ms, 1204ms total)
T2C88 008:637 JLINK_ReadReg(R15 (PC))  returns 0x000191F4 (0000ms, 1204ms total)
T2C88 008:637 JLINK_ReadReg(XPSR)  returns 0x61000000 (0000ms, 1204ms total)
T2C88 008:638 JLINK_ReadReg(R0)  returns 0x20003868 (0000ms, 1204ms total)
T2C88 008:638 JLINK_ReadReg(R1)  returns 0x00000000 (0000ms, 1204ms total)
T2C88 008:638 JLINK_ReadReg(R2)  returns 0x50000500 (0000ms, 1204ms total)
T2C88 008:638 JLINK_ReadReg(R3)  returns 0x00000000 (0000ms, 1204ms total)
T2C88 008:638 JLINK_ReadReg(R4)  returns 0x00000080 (0000ms, 1204ms total)
T2C88 008:638 JLINK_ReadReg(R5)  returns 0x000000A8 (0000ms, 1204ms total)
T2C88 008:638 JLINK_ReadReg(R6)  returns 0x00000000 (0000ms, 1204ms total)
T2C88 008:638 JLINK_ReadReg(R7)  returns 0x00000000 (0000ms, 1204ms total)
T2C88 008:638 JLINK_ReadReg(R8)  returns 0xFFFFFFFF (0000ms, 1204ms total)
T2C88 008:638 JLINK_ReadReg(R9)  returns 0xFFFFFFFF (0000ms, 1204ms total)
T2C88 008:638 JLINK_ReadReg(R10)  returns 0x0001AC70 (0000ms, 1204ms total)
T2C88 008:638 JLINK_ReadReg(R11)  returns 0x0001AC70 (0000ms, 1204ms total)
T2C88 008:638 JLINK_ReadReg(R12)  returns 0xFFFFFFFF (0000ms, 1204ms total)
T2C88 008:638 JLINK_ReadReg(R13 (SP))  returns 0x20003868 (0000ms, 1204ms total)
T2C88 008:638 JLINK_ReadReg(R14)  returns 0x000191E9 (0000ms, 1204ms total)
T2C88 008:638 JLINK_ReadReg(R15 (PC))  returns 0x000191F4 (0000ms, 1204ms total)
T2C88 008:638 JLINK_ReadReg(XPSR)  returns 0x61000000 (0001ms, 1205ms total)
T2C88 008:639 JLINK_ReadReg(MSP)  returns 0x20003868 (0000ms, 1205ms total)
T2C88 008:639 JLINK_ReadReg(PSP)  returns 0xFFFFFFFC (0000ms, 1205ms total)
T2C88 008:639 JLINK_ReadReg(CFBP)  returns 0x00000000 (0000ms, 1205ms total)
T24B8 008:641 JLINK_ReadMem (0x2000387C, 0x0004 Bytes, ...) -- CPU_ReadMem(64 bytes @ 0x20003840) -- Updating C cache (64 bytes @ 0x20003840) -- Read from C cache (4 bytes @ 0x2000387C) -- Data:  B7 4C 01 00  returns 0x00 (0003ms, 1208ms total)
T24B8 008:644 JLINK_ReadMem (0x20003870, 0x0004 Bytes, ...) -- Read from C cache (4 bytes @ 0x20003870) -- Data:  80 00 00 00  returns 0x00 (0000ms, 1208ms total)
T24B8 008:644 JLINK_ReadMem (0x20003874, 0x0004 Bytes, ...) -- Read from C cache (4 bytes @ 0x20003874) -- Data:  28 28 00 20  returns 0x00 (0000ms, 1208ms total)
T24B8 008:644 JLINK_ReadMem (0x20003878, 0x0004 Bytes, ...) -- Read from C cache (4 bytes @ 0x20003878) -- Data:  00 00 00 00  returns 0x00 (0000ms, 1208ms total)
T24B8 008:644 JLINK_ReadMem (0x20003884, 0x0004 Bytes, ...) -- Read from C cache (4 bytes @ 0x20003884) -- Data:  57 41 01 00  returns 0x00 (0000ms, 1208ms total)
T24B8 008:645 JLINK_ReadMem (0x2000386C, 0x0001 Bytes, ...) -- Read from C cache (1 bytes @ 0x2000386C) -- Data:  FF  returns 0x00 (0000ms, 1208ms total)
T24B8 008:646 JLINK_ReadMem (0x20003868, 0x0002 Bytes, ...) -- Read from C cache (2 bytes @ 0x20003868) -- Data:  00 05  returns 0x00 (0000ms, 1208ms total)
T24B8 008:646 JLINK_ReadMem (0x20003880, 0x0002 Bytes, ...) -- Read from C cache (2 bytes @ 0x20003880) -- Data:  88 FA  returns 0x00 (0000ms, 1208ms total)
T24B8 008:649 JLINK_ReadMem (0x000191F2, 0x0002 Bytes, ...) -- Read from C cache (2 bytes @ 0x000191F2) -- Data:  01 70  returns 0x00 (0000ms, 1208ms total)
T24B8 008:649 JLINK_ReadMem (0x000191F4, 0x003C Bytes, ...) -- Read from C cache (60 bytes @ 0x000191F4) -- Data:  44 70 00 23 02 22 69 46 28 46 FF F7 A7 FE 00 28 ...  returns 0x00 (0000ms, 1208ms total)
T2C88 010:136 JLINK_Step() -- Read from C cache (2 bytes @ 0x000191F4) -- CPU_WriteMem(1 bytes @ 0x20003869) -- Simulated  returns 0x00 (0010ms, 1218ms total)
T2C88 010:146 JLINK_ReadReg(R15 (PC))  returns 0x000191F6 (0000ms, 1218ms total)
T2C88 010:146 JLINK_ReadReg(XPSR)  returns 0x61000000 (0000ms, 1218ms total)
T2C88 010:146 JLINK_ReadReg(R0)  returns 0x20003868 (0000ms, 1218ms total)
T2C88 010:146 JLINK_ReadReg(R1)  returns 0x00000000 (0000ms, 1218ms total)
T2C88 010:146 JLINK_ReadReg(R2)  returns 0x50000500 (0000ms, 1218ms total)
T2C88 010:146 JLINK_ReadReg(R3)  returns 0x00000000 (0000ms, 1218ms total)
T2C88 010:146 JLINK_ReadReg(R4)  returns 0x00000080 (0000ms, 1218ms total)
T2C88 010:146 JLINK_ReadReg(R5)  returns 0x000000A8 (0000ms, 1218ms total)
T2C88 010:146 JLINK_ReadReg(R6)  returns 0x00000000 (0000ms, 1218ms total)
T2C88 010:146 JLINK_ReadReg(R7)  returns 0x00000000 (0000ms, 1218ms total)
T2C88 010:146 JLINK_ReadReg(R8)  returns 0xFFFFFFFF (0000ms, 1218ms total)
T2C88 010:146 JLINK_ReadReg(R9)  returns 0xFFFFFFFF (0000ms, 1218ms total)
T2C88 010:146 JLINK_ReadReg(R10)  returns 0x0001AC70 (0001ms, 1219ms total)
T2C88 010:147 JLINK_ReadReg(R11)  returns 0x0001AC70 (0000ms, 1219ms total)
T2C88 010:147 JLINK_ReadReg(R12)  returns 0xFFFFFFFF (0000ms, 1219ms total)
T2C88 010:147 JLINK_ReadReg(R13 (SP))  returns 0x20003868 (0000ms, 1219ms total)
T2C88 010:147 JLINK_ReadReg(R14)  returns 0x000191E9 (0000ms, 1219ms total)
T2C88 010:147 JLINK_ReadReg(R15 (PC))  returns 0x000191F6 (0000ms, 1219ms total)
T2C88 010:147 JLINK_ReadReg(XPSR)  returns 0x61000000 (0000ms, 1219ms total)
T2C88 010:147 JLINK_ReadReg(MSP)  returns 0x20003868 (0000ms, 1219ms total)
T2C88 010:147 JLINK_ReadReg(PSP)  returns 0xFFFFFFFC (0000ms, 1219ms total)
T2C88 010:147 JLINK_ReadReg(CFBP)  returns 0x00000000 (0000ms, 1219ms total)
T24B8 010:150 JLINK_ReadMem (0x2000387C, 0x0004 Bytes, ...) -- CPU_ReadMem(64 bytes @ 0x20003840) -- Updating C cache (64 bytes @ 0x20003840) -- Read from C cache (4 bytes @ 0x2000387C) -- Data:  B7 4C 01 00  returns 0x00 (0003ms, 1222ms total)
T24B8 010:153 JLINK_ReadMem (0x20003870, 0x0004 Bytes, ...) -- Read from C cache (4 bytes @ 0x20003870) -- Data:  80 00 00 00  returns 0x00 (0000ms, 1222ms total)
T24B8 010:153 JLINK_ReadMem (0x20003874, 0x0004 Bytes, ...) -- Read from C cache (4 bytes @ 0x20003874) -- Data:  28 28 00 20  returns 0x00 (0000ms, 1222ms total)
T24B8 010:153 JLINK_ReadMem (0x20003878, 0x0004 Bytes, ...) -- Read from C cache (4 bytes @ 0x20003878) -- Data:  00 00 00 00  returns 0x00 (0000ms, 1222ms total)
T24B8 010:153 JLINK_ReadMem (0x20003884, 0x0004 Bytes, ...) -- Read from C cache (4 bytes @ 0x20003884) -- Data:  57 41 01 00  returns 0x00 (0000ms, 1222ms total)
T24B8 010:153 JLINK_ReadMem (0x2000386C, 0x0001 Bytes, ...) -- Read from C cache (1 bytes @ 0x2000386C) -- Data:  FF  returns 0x00 (0000ms, 1222ms total)
T24B8 010:153 JLINK_ReadMem (0x20003868, 0x0002 Bytes, ...) -- Read from C cache (2 bytes @ 0x20003868) -- Data:  00 80  returns 0x00 (0000ms, 1222ms total)
T24B8 010:154 JLINK_ReadMem (0x20003880, 0x0002 Bytes, ...) -- Read from C cache (2 bytes @ 0x20003880) -- Data:  88 FA  returns 0x00 (0000ms, 1222ms total)
T2C88 011:974 JLINK_ReadMem (0x000191F6, 0x0002 Bytes, ...) -- Read from C cache (2 bytes @ 0x000191F6) -- Data:  00 23  returns 0x00 (0004ms, 1226ms total)
T2C88 011:978 JLINK_ReadMem (0x000191F8, 0x003C Bytes, ...) -- Read from C cache (60 bytes @ 0x000191F8) -- Data:  02 22 69 46 28 46 FF F7 A7 FE 00 28 0A D0 02 20 ...  returns 0x00 (0000ms, 1226ms total)
T2C88 011:978 JLINK_Step() -- Read from C cache (2 bytes @ 0x000191F6) -- Simulated  returns 0x00 (0003ms, 1229ms total)
T2C88 011:981 JLINK_ReadReg(R15 (PC))  returns 0x000191F8 (0000ms, 1229ms total)
T2C88 011:981 JLINK_ReadReg(XPSR)  returns 0x61000000 (0000ms, 1229ms total)
T2C88 011:981 JLINK_Step() -- Read from C cache (2 bytes @ 0x000191F8) -- Simulated  returns 0x00 (0000ms, 1229ms total)
T2C88 011:981 JLINK_ReadReg(R15 (PC))  returns 0x000191FA (0000ms, 1229ms total)
T2C88 011:981 JLINK_ReadReg(XPSR)  returns 0x21000000 (0000ms, 1229ms total)
T2C88 011:982 JLINK_Step() -- Read from C cache (2 bytes @ 0x000191FA) -- Simulated  returns 0x00 (0000ms, 1230ms total)
T2C88 011:982 JLINK_ReadReg(R15 (PC))  returns 0x000191FC (0000ms, 1230ms total)
T2C88 011:982 JLINK_ReadReg(XPSR)  returns 0x21000000 (0000ms, 1230ms total)
T2C88 011:982 JLINK_Step() -- Read from C cache (2 bytes @ 0x000191FC) -- Simulated  returns 0x00 (0000ms, 1230ms total)
T2C88 011:982 JLINK_ReadReg(R15 (PC))  returns 0x000191FE (0000ms, 1230ms total)
T2C88 011:982 JLINK_ReadReg(XPSR)  returns 0x21000000 (0000ms, 1230ms total)
T2C88 011:982 JLINK_SetBPEx(Addr = 0x00019202, Type = 0xFFFFFFF2)  returns 0x00000004 (0000ms, 1230ms total)
T2C88 011:982 JLINK_SetBPEx(Addr = 0x00014CAE, Type = 0xFFFFFFF2)  returns 0x00000005 (0000ms, 1230ms total)
T2C88 011:982 JLINK_Go() -- CPU_WriteMem(4 bytes @ 0xE0002000) -- CPU_WriteMem(4 bytes @ 0xE0002000) -- CPU_WriteMem(4 bytes @ 0xE0002008) -- CPU_WriteMem(4 bytes @ 0xE000200C) -- CPU_WriteMem(4 bytes @ 0xE0001004) (0022ms, 1252ms total)
T2C88 012:105 JLINK_IsHalted()  returns TRUE (0008ms, 1261ms total)
T2C88 012:113 JLINK_Halt()  returns 0x00 (0000ms, 1253ms total)
T2C88 012:113 JLINK_IsHalted()  returns TRUE (0000ms, 1253ms total)
T2C88 012:113 JLINK_IsHalted()  returns TRUE (0001ms, 1254ms total)
T2C88 012:114 JLINK_IsHalted()  returns TRUE (0000ms, 1253ms total)
T2C88 012:114 JLINK_ReadReg(R15 (PC))  returns 0x00019202 (0000ms, 1253ms total)
T2C88 012:114 JLINK_ReadReg(XPSR)  returns 0x21000000 (0000ms, 1253ms total)
T2C88 012:114 JLINK_ClrBPEx(BPHandle = 0x00000004)  returns 0x00 (0000ms, 1253ms total)
T2C88 012:114 JLINK_ClrBPEx(BPHandle = 0x00000005)  returns 0x00 (0000ms, 1253ms total)
T2C88 012:114 JLINK_ReadMemU32(0xE000ED30, 0x0001 Items, ...) -- CPU_ReadMem(4 bytes @ 0xE000ED30) -- Data:  03 00 00 00  returns 0x01 (0004ms, 1257ms total)
T2C88 012:118 JLINK_ReadMemU32(0xE0001028, 0x0001 Items, ...) -- CPU_ReadMem(4 bytes @ 0xE0001028) -- Data:  00 00 00 00  returns 0x01 (0003ms, 1260ms total)
